Time [s],Packet ID,MOSI,MISO
1.415560125,0,'175' (0xAF),'0' (0x00)
1.4155665,0,'170' (0xAA),'0' (0x00)
1.415602375,1,/ (0x2F),'0' (0x00)
1.415608625,1,'0' (0x00),'170' (0xAA)
1.415649,2,'175' (0xAF),'0' (0x00)
1.4156555,2,U (0x55),'170' (0xAA)
1.41569125,3,/ (0x2F),'0' (0x00)
1.4156975,3,'0' (0x00),U (0x55)
1.415736375,4,'129' (0x81),'0' (0x00)
1.415742875,4,'4' (0x04),'4' (0x04)
1.4157805,5,'130' (0x82),'0' (0x00)
1.415786875,5,'0' (0x00),'0' (0x00)
1.415824625,6,'131' (0x83),'0' (0x00)
1.415831,6,'2' (0x02),'26' (0x1A)
1.415868625,7,'132' (0x84),'0' (0x00)
1.415875125,7,@ (0x40),'11' (0x0B)
1.41591275,8,'133' (0x85),'0' (0x00)
1.41591925,8,'3' (0x03),'0' (0x00)
1.415956875,9,'134' (0x86),'0' (0x00)
1.415963375,9,3 (0x33),R (0x52)
1.416001,10,'135' (0x87),'0' (0x00)
1.416007375,10,l (0x6C),'228' (0xE4)
1.416045125,11,'136' (0x88),'0' (0x00)
1.4160515,11,@ (0x40),'192' (0xC0)
1.416089125,12,'137' (0x89),'0' (0x00)
1.416095625,12,'0' (0x00),'0' (0x00)
1.41613325,13,'153' (0x99),'0' (0x00)
1.41613975,13,B (0x42),'134' (0x86)
1.416177375,14,'165' (0xA5),'0' (0x00)
1.41618375,14,@ (0x40),'0' (0x00)
1.4162215,15,'166' (0xA6),'0' (0x00)
1.416227875,15,'7' (0x07),'5' (0x05)
1.416265625,16,'168' (0xA8),'0' (0x00)
1.416272,16,'16' (0x10),'0' (0x00)
1.416309625,17,'169' (0xA9),'0' (0x00)
1.416316125,17,'220' (0xDC),'255' (0xFF)
1.41635375,18,'174' (0xAE),'0' (0x00)
1.41636025,18,'136' (0x88),'152' (0x98)
1.416397875,19,'175' (0xAF),'0' (0x00)
1.416404375,19,- (0x2D),U (0x55)
1.416442,20,'183' (0xB7),'0' (0x00)
1.4164485,20,'144' (0x90),'16' (0x10)
1.416486125,21,'184' (0xB8),'0' (0x00)
1.416492625,21,B (0x42),@ (0x40)
1.41653025,22,'188' (0xBC),'0' (0x00)
1.416536625,22,'143' (0x8F),'15' (0x0F)
1.416574375,23,'189' (0xBD),'0' (0x00)
1.41658075,23,'18' (0x12),'2' (0x02)
1.4166185,24,'239' (0xEF),'0' (0x00)
1.416624875,24,0 (0x30),'0' (0x00)
1.41666825,25,' (0x27),'0' (0x00)
1.4166745,25,'0' (0x00),'128' (0x80)
1.41671475,26,'176' (0xB0),'0' (0x00)
1.416721125,26,d (0x64),'0' (0x00)
1.416770625,27,= (0x3D),'0' (0x00)
1.416776875,27,'0' (0x00),'18' (0x12)
1.416813875,28,'189' (0xBD),'0' (0x00)
1.416820375,28,'22' (0x16),'18' (0x12)
1.416872,29,( (0x28),'0' (0x00)
1.41687825,29,'0' (0x00),'0' (0x00)
1.4169155,30,'165' (0xA5),'0' (0x00)
1.416922,30,@ (0x40),@ (0x40)
1.416961125,31,'1' (0x01),'0' (0x00)
1.41696725,31,'0' (0x00),'4' (0x04)
1.4170045,32,'129' (0x81),'0' (0x00)
1.417010875,32,'16' (0x10),'4' (0x04)
1.4170515,33,$ (0x24),'0' (0x00)
1.41705775,33,'0' (0x00),'255' (0xFF)
1.417098125,34,'1' (0x01),'0' (0x00)
1.417104375,34,'0' (0x00),'16' (0x10)
1.4171415,35,'129' (0x81),'0' (0x00)
1.417148,35,'4' (0x04),'16' (0x10)
1.417197625,36,' (0x27),'0' (0x00)
1.41720375,36,'0' (0x00),'128' (0x80)
1.417241,37,'165' (0xA5),'0' (0x00)
1.417247375,37,'0' (0x00),@ (0x40)
1.417281375,38,'128' (0x80),'0' (0x00)
1.41728775,38,\t (0x09),'0' (0x00)
1.417294,38,'1' (0x01),\t (0x09)
1.417300375,38,7 (0x37),\t (0x09)
1.4173065,38,@ (0x40),\t (0x09)
1.417314,38,S (0x53),\t (0x09)
1.41732125,38,T (0x54),\t (0x09)
1.417328625,38,A (0x41),\t (0x09)
1.417335875,38,R (0x52),\t (0x09)
1.41734325,38,T (0x54),\t (0x09)
1.4173505,38,'0' (0x00),\t (0x09)
1.417388625,39,'1' (0x01),\t (0x09)
1.417394875,39,'0' (0x00),'4' (0x04)
1.417432,40,'129' (0x81),\t (0x09)
1.4174385,40,'12' (0x0C),'4' (0x04)
1.420032625,41,o (0x6F),'0' (0x00)
1.420038875,41,'0' (0x00),0 (0x30)
1.420075375,42,$ (0x24),'0' (0x00)
1.420081625,42,'0' (0x00),'255' (0xFF)
2.3923495,43,'1' (0x01),'0' (0x00)
2.39235575,43,'0' (0x00),'12' (0x0C)
2.392393,44,'129' (0x81),'0' (0x00)
2.392399375,44,'4' (0x04),'12' (0x0C)
2.3924535,45,( (0x28),\t (0x09)
2.39245975,45,'0' (0x00),'0' (0x00)
2.392497,46,'165' (0xA5),\t (0x09)
2.3925035,46,@ (0x40),'0' (0x00)
2.392542625,47,'1' (0x01),\t (0x09)
2.39254875,47,'0' (0x00),'4' (0x04)
2.392586,48,'129' (0x81),\t (0x09)
2.392592375,48,'16' (0x10),'4' (0x04)
2.42984775,49,( (0x28),'3' (0x03)
2.429853875,49,'0' (0x00),F (0x46)
2.429893875,50,'1' (0x01),'3' (0x03)
2.429900125,50,'0' (0x00),'16' (0x10)
2.42993725,51,'129' (0x81),'3' (0x03)
2.42994375,51,'4' (0x04),'16' (0x10)
2.429978625,52,'0' (0x00),'3' (0x03)
2.42998475,52,'0' (0x00),'3' (0x03)
2.42999225,52,'0' (0x00),7 (0x37)
2.430001375,52,'0' (0x00),'1' (0x01)
2.430007875,52,'0' (0x00),'128' (0x80)
2.4300505,53,'1' (0x01),S (0x53)
2.43005675,53,'0' (0x00),'4' (0x04)
2.430093875,54,'129' (0x81),S (0x53)
2.430100375,54,'16' (0x10),'4' (0x04)
2.430138125,55,o (0x6F),S (0x53)
2.430144375,55,'0' (0x00),0 (0x30)
2.430180875,56,$ (0x24),S (0x53)
2.430187125,56,'0' (0x00),5 (0x35)
2.43023825,57,'1' (0x01),S (0x53)
2.4302445,57,'0' (0x00),'16' (0x10)
2.430293625,58,'129' (0x81),S (0x53)
2.430300125,58,'4' (0x04),'16' (0x10)
2.430346875,59,'1' (0x01),S (0x53)
2.430353125,59,'0' (0x00),'4' (0x04)
2.43039025,60,'129' (0x81),S (0x53)
2.43039675,60,'0' (0x00),'4' (0x04)
2.430994625,61,= (0x3D),S (0x53)
2.431000875,61,'0' (0x00),'18' (0x12)
2.431038,62,'189' (0xBD),S (0x53)
2.431044375,62,'22' (0x16),'18' (0x12)
2.431096125,63,( (0x28),S (0x53)
2.43110225,63,'0' (0x00),'0' (0x00)
2.431139625,64,'165' (0xA5),S (0x53)
2.431146,64,@ (0x40),@ (0x40)
2.431185125,65,'1' (0x01),S (0x53)
2.431191375,65,'0' (0x00),'0' (0x00)
2.4312285,66,'129' (0x81),S (0x53)
2.431235,66,'16' (0x10),'0' (0x00)
2.431271125,67,' (0x27),S (0x53)
2.431277375,67,'0' (0x00),'0' (0x00)
2.43131475,68,' (0x27),S (0x53)
2.431321,68,'0' (0x00),'16' (0x10)
2.431358375,69,' (0x27),S (0x53)
2.431364625,69,'0' (0x00),'16' (0x10)
2.431402,70,' (0x27),S (0x53)
2.43140825,70,'0' (0x00),'144' (0x90)
2.431449375,71,$ (0x24),S (0x53)
2.4314555,71,'0' (0x00),'255' (0xFF)
2.431496,72,'1' (0x01),S (0x53)
2.43150225,72,'0' (0x00),'16' (0x10)
2.431539375,73,'129' (0x81),S (0x53)
2.431545875,73,'4' (0x04),'16' (0x10)
2.4315955,74,' (0x27),S (0x53)
2.43160175,74,'0' (0x00),'128' (0x80)
2.431638875,75,'165' (0xA5),S (0x53)
2.431645375,75,'0' (0x00),@ (0x40)
2.43167925,76,'128' (0x80),S (0x53)
2.4316855,76,'15' (0x0F),S (0x53)
2.43169175,76,'1' (0x01),'15' (0x0F)
2.431698125,76,7 (0x37),'15' (0x0F)
2.43170425,76,'0' (0x00),'15' (0x0F)
2.43171175,76,L (0x4C),'15' (0x0F)
2.431719,76,O (0x4F),'15' (0x0F)
2.431726375,76,: (0x3A),'15' (0x0F)
2.43173375,76,5 (0x35),'15' (0x0F)
2.431741,76,9 (0x39),'15' (0x0F)
2.431748375,76,s (0x73),'15' (0x0F)
2.431755625,76,' ' (0x20),'15' (0x0F)
2.431763,76,B (0x42),'15' (0x0F)
2.43177025,76,A (0x41),'15' (0x0F)
2.431777625,76,T (0x54),'15' (0x0F)
2.431784875,76,: (0x3A),'15' (0x0F)
2.43179225,76,v (0x76),'15' (0x0F)
2.431830375,77,'1' (0x01),'15' (0x0F)
2.4318365,77,'0' (0x00),'4' (0x04)
2.43187375,78,'129' (0x81),'15' (0x0F)
2.431880125,78,'12' (0x0C),'4' (0x04)
2.431932,79,'1' (0x01),'15' (0x0F)
2.431938125,79,'0' (0x00),'12' (0x0C)
2.431975375,80,'129' (0x81),'15' (0x0F)
2.431981875,80,'4' (0x04),'12' (0x0C)
2.432025375,81,'1' (0x01),'3' (0x03)
2.4320315,81,'0' (0x00),'12' (0x0C)
2.43206875,82,'129' (0x81),'3' (0x03)
2.43207525,82,'0' (0x00),'12' (0x0C)
2.432720375,83,= (0x3D),'3' (0x03)
2.4327265,83,'0' (0x00),'18' (0x12)
2.432763625,84,'189' (0xBD),'3' (0x03)
2.43277,84,'22' (0x16),'18' (0x12)
2.43282175,85,( (0x28),'3' (0x03)
2.432827875,85,'0' (0x00),'0' (0x00)
2.43286525,86,'165' (0xA5),'3' (0x03)
2.432871625,86,@ (0x40),'0' (0x00)
2.43291075,87,'1' (0x01),'3' (0x03)
2.432917,87,'0' (0x00),'0' (0x00)
2.432954125,88,'129' (0x81),'3' (0x03)
2.432960625,88,'16' (0x10),'0' (0x00)
2.43299675,89,' (0x27),'3' (0x03)
2.433003,89,'0' (0x00),'0' (0x00)
2.433040375,90,' (0x27),'3' (0x03)
2.433046625,90,'0' (0x00),'16' (0x10)
2.433084,91,' (0x27),'3' (0x03)
2.43309025,91,'0' (0x00),'16' (0x10)
2.433127625,92,' (0x27),'3' (0x03)
2.433133875,92,'0' (0x00),'144' (0x90)
2.433175,93,$ (0x24),'3' (0x03)
2.433181125,93,'0' (0x00),'255' (0xFF)
2.433221625,94,'1' (0x01),'3' (0x03)
2.433227875,94,'0' (0x00),'16' (0x10)
2.433265,95,'129' (0x81),'3' (0x03)
2.4332715,95,'4' (0x04),'16' (0x10)
2.433321125,96,' (0x27),'3' (0x03)
2.43332725,96,'0' (0x00),'128' (0x80)
2.4333645,97,'165' (0xA5),'3' (0x03)
2.433370875,97,'0' (0x00),@ (0x40)
2.43340475,98,'128' (0x80),'3' (0x03)
2.433411125,98,'14' (0x0E),'3' (0x03)
2.433417375,98,'1' (0x01),'14' (0x0E)
2.433423625,98,7 (0x37),'14' (0x0E)
2.433429875,98,'0' (0x00),'14' (0x0E)
2.433437375,98,L (0x4C),'14' (0x0E)
2.433444625,98,O (0x4F),'14' (0x0E)
2.433452,98,: (0x3A),'14' (0x0E)
2.43345925,98,2 (0x32),'14' (0x0E)
2.433466625,98,m (0x6D),'14' (0x0E)
2.433473875,98,' ' (0x20),'14' (0x0E)
2.43348125,98,B (0x42),'14' (0x0E)
2.4334885,98,A (0x41),'14' (0x0E)
2.433495875,98,T (0x54),'14' (0x0E)
2.433503125,98,: (0x3A),'14' (0x0E)
2.4335105,98,v (0x76),'14' (0x0E)
2.433548625,99,'1' (0x01),'14' (0x0E)
2.43355475,99,'0' (0x00),'4' (0x04)
2.433592,100,'129' (0x81),'14' (0x0E)
2.433598375,100,'12' (0x0C),'4' (0x04)
2.43365025,101,'1' (0x01),'14' (0x0E)
2.433656375,101,'0' (0x00),'12' (0x0C)
2.433693625,102,'129' (0x81),'14' (0x0E)
2.4337,102,'4' (0x04),'12' (0x0C)
2.4337435,103,'1' (0x01),'14' (0x0E)
2.43374975,103,'0' (0x00),'12' (0x0C)
2.433787,104,'129' (0x81),'14' (0x0E)
2.433793375,104,'0' (0x00),'12' (0x0C)
2.43443775,105,= (0x3D),'14' (0x0E)
2.434444,105,'0' (0x00),'18' (0x12)
2.434481,106,'189' (0xBD),'14' (0x0E)
2.4344875,106,'22' (0x16),'18' (0x12)
2.434539125,107,( (0x28),'14' (0x0E)
2.434545375,107,'0' (0x00),'0' (0x00)
2.434582625,108,'165' (0xA5),'14' (0x0E)
2.434589125,108,@ (0x40),'0' (0x00)
2.43462825,109,'1' (0x01),'14' (0x0E)
2.4346345,109,'0' (0x00),'0' (0x00)
2.434671625,110,'129' (0x81),'14' (0x0E)
2.434678125,110,'16' (0x10),'0' (0x00)
2.43471425,111,' (0x27),'14' (0x0E)
2.4347205,111,'0' (0x00),'0' (0x00)
2.434757875,112,' (0x27),'14' (0x0E)
2.434764125,112,'0' (0x00),'16' (0x10)
2.4348015,113,' (0x27),'14' (0x0E)
2.43480775,113,'0' (0x00),'16' (0x10)
2.434845125,114,' (0x27),'14' (0x0E)
2.434851375,114,'0' (0x00),'144' (0x90)
2.4348925,115,$ (0x24),'14' (0x0E)
2.434898625,115,'0' (0x00),'255' (0xFF)
2.434939125,116,'1' (0x01),'14' (0x0E)
2.434945375,116,'0' (0x00),'16' (0x10)
2.4349825,117,'129' (0x81),'14' (0x0E)
2.434988875,117,'4' (0x04),'16' (0x10)
2.4350385,118,' (0x27),'14' (0x0E)
2.43504475,118,'0' (0x00),'128' (0x80)
2.435081875,119,'165' (0xA5),'14' (0x0E)
2.435088375,119,'0' (0x00),@ (0x40)
2.43512225,120,'128' (0x80),'14' (0x0E)
2.435128625,120,'14' (0x0E),'14' (0x0E)
2.43513475,120,'1' (0x01),'14' (0x0E)
2.435141125,120,7 (0x37),'14' (0x0E)
2.435147375,120,'0' (0x00),'14' (0x0E)
2.43515475,120,L (0x4C),'14' (0x0E)
2.435162125,120,O (0x4F),'14' (0x0E)
2.435169375,120,: (0x3A),'14' (0x0E)
2.43517675,120,3 (0x33),'14' (0x0E)
2.435184,120,m (0x6D),'14' (0x0E)
2.435191375,120,' ' (0x20),'14' (0x0E)
2.435198625,120,B (0x42),'14' (0x0E)
2.435206,120,A (0x41),'14' (0x0E)
2.43521325,120,T (0x54),'14' (0x0E)
2.435220625,120,: (0x3A),'14' (0x0E)
2.435227875,120,v (0x76),'14' (0x0E)
2.435266,121,'1' (0x01),'14' (0x0E)
2.43527225,121,'0' (0x00),'4' (0x04)
2.435309375,122,'129' (0x81),'14' (0x0E)
2.435315875,122,'12' (0x0C),'4' (0x04)
2.435367625,123,'1' (0x01),'14' (0x0E)
2.435373875,123,'0' (0x00),'12' (0x0C)
2.435411,124,'129' (0x81),'14' (0x0E)
2.4354175,124,'4' (0x04),'12' (0x0C)
2.435461,125,'1' (0x01),'14' (0x0E)
2.43546725,125,'0' (0x00),'12' (0x0C)
2.4355045,126,'129' (0x81),'14' (0x0E)
2.435510875,126,'0' (0x00),'12' (0x0C)
2.436142625,127,= (0x3D),'14' (0x0E)
2.436148875,127,'0' (0x00),'18' (0x12)
2.436185875,128,'189' (0xBD),'14' (0x0E)
2.436192375,128,'22' (0x16),'18' (0x12)
2.436244,129,( (0x28),'14' (0x0E)
2.43625025,129,'0' (0x00),'0' (0x00)
2.4362995,130,'165' (0xA5),'14' (0x0E)
2.436306,130,@ (0x40),'0' (0x00)
2.436345125,131,'1' (0x01),'14' (0x0E)
2.43635125,131,'0' (0x00),'0' (0x00)
2.4363885,132,'129' (0x81),'14' (0x0E)
2.436395,132,'16' (0x10),'0' (0x00)
2.436431125,133,' (0x27),'14' (0x0E)
2.436437375,133,'0' (0x00),'0' (0x00)
2.43647475,134,' (0x27),'14' (0x0E)
2.436481,134,'0' (0x00),'16' (0x10)
2.436518375,135,' (0x27),'14' (0x0E)
2.436524625,135,'0' (0x00),'16' (0x10)
2.436562,136,' (0x27),'14' (0x0E)
2.43656825,136,'0' (0x00),'144' (0x90)
2.436609375,137,$ (0x24),'14' (0x0E)
2.4366155,137,'0' (0x00),'255' (0xFF)
2.436656,138,'1' (0x01),'14' (0x0E)
2.43666225,138,'0' (0x00),'16' (0x10)
2.436699375,139,'129' (0x81),'14' (0x0E)
2.436705875,139,'4' (0x04),'16' (0x10)
2.4367555,140,' (0x27),'14' (0x0E)
2.436761625,140,'0' (0x00),'128' (0x80)
2.436798875,141,'165' (0xA5),'14' (0x0E)
2.43680525,141,'0' (0x00),@ (0x40)
2.436839125,142,'128' (0x80),'14' (0x0E)
2.4368455,142,'14' (0x0E),'14' (0x0E)
2.43685175,142,'1' (0x01),'14' (0x0E)
2.436858125,142,7 (0x37),'14' (0x0E)
2.43686425,142,'0' (0x00),'14' (0x0E)
2.43687175,142,L (0x4C),'14' (0x0E)
2.436879,142,O (0x4F),'14' (0x0E)
2.436886375,142,: (0x3A),'14' (0x0E)
2.436893625,142,4 (0x34),'14' (0x0E)
2.436901,142,m (0x6D),'14' (0x0E)
2.43690825,142,' ' (0x20),'14' (0x0E)
2.436915625,142,B (0x42),'14' (0x0E)
2.436922875,142,A (0x41),'14' (0x0E)
2.43693025,142,T (0x54),'14' (0x0E)
2.4369375,142,: (0x3A),'14' (0x0E)
2.436944875,142,v (0x76),'14' (0x0E)
2.436983,143,'1' (0x01),'14' (0x0E)
2.43698925,143,'0' (0x00),'4' (0x04)
2.437026375,144,'129' (0x81),'14' (0x0E)
2.437032875,144,'12' (0x0C),'4' (0x04)
2.437084625,145,'1' (0x01),'14' (0x0E)
2.437090875,145,'0' (0x00),'12' (0x0C)
2.437128,146,'129' (0x81),'14' (0x0E)
2.4371345,146,'4' (0x04),'12' (0x0C)
2.437178,147,'1' (0x01),'14' (0x0E)
2.43718425,147,'0' (0x00),'12' (0x0C)
2.437221375,148,'129' (0x81),'14' (0x0E)
2.437227875,148,'0' (0x00),'12' (0x0C)
2.437860375,149,= (0x3D),'14' (0x0E)
2.437866625,149,'0' (0x00),'18' (0x12)
2.437903625,150,'189' (0xBD),'14' (0x0E)
2.437910125,150,'22' (0x16),'18' (0x12)
2.43796175,151,( (0x28),'14' (0x0E)
2.437968,151,'0' (0x00),'0' (0x00)
2.43800525,152,'165' (0xA5),'14' (0x0E)
2.43801175,152,@ (0x40),'0' (0x00)
2.438050875,153,'1' (0x01),'14' (0x0E)
2.438057,153,'0' (0x00),'0' (0x00)
2.43809425,154,'129' (0x81),'14' (0x0E)
2.438100625,154,'16' (0x10),'0' (0x00)
2.438136875,155,' (0x27),'14' (0x0E)
2.438143125,155,'0' (0x00),'0' (0x00)
2.4381805,156,' (0x27),'14' (0x0E)
2.43818675,156,'0' (0x00),'16' (0x10)
2.438224125,157,' (0x27),'14' (0x0E)
2.438230375,157,'0' (0x00),'16' (0x10)
2.43827975,158,' (0x27),'14' (0x0E)
2.438286,158,'0' (0x00),'144' (0x90)
2.438327125,159,$ (0x24),'14' (0x0E)
2.43833325,159,'0' (0x00),'255' (0xFF)
2.43837375,160,'1' (0x01),'14' (0x0E)
2.43838,160,'0' (0x00),'16' (0x10)
2.438417125,161,'129' (0x81),'14' (0x0E)
2.438423625,161,'4' (0x04),'16' (0x10)
2.43847325,162,' (0x27),'14' (0x0E)
2.4384795,162,'0' (0x00),'128' (0x80)
2.438516625,163,'165' (0xA5),'14' (0x0E)
2.438523125,163,'0' (0x00),@ (0x40)
2.438557,164,'128' (0x80),'14' (0x0E)
2.438563375,164,'14' (0x0E),'14' (0x0E)
2.4385695,164,'1' (0x01),'14' (0x0E)
2.438575875,164,7 (0x37),'14' (0x0E)
2.438582125,164,'0' (0x00),'14' (0x0E)
2.4385895,164,L (0x4C),'14' (0x0E)
2.438596875,164,O (0x4F),'14' (0x0E)
2.438604125,164,: (0x3A),'14' (0x0E)
2.4386115,164,5 (0x35),'14' (0x0E)
2.43861875,164,m (0x6D),'14' (0x0E)
2.438626125,164,' ' (0x20),'14' (0x0E)
2.438633375,164,B (0x42),'14' (0x0E)
2.43864075,164,A (0x41),'14' (0x0E)
2.438648,164,T (0x54),'14' (0x0E)
2.438655375,164,: (0x3A),'14' (0x0E)
2.43866275,164,v (0x76),'14' (0x0E)
2.438700875,165,'1' (0x01),'14' (0x0E)
2.438707,165,'0' (0x00),'4' (0x04)
2.43874425,166,'129' (0x81),'14' (0x0E)
2.438750625,166,'12' (0x0C),'4' (0x04)
2.4388025,167,'1' (0x01),'14' (0x0E)
2.43880875,167,'0' (0x00),'12' (0x0C)
2.438845875,168,'129' (0x81),'14' (0x0E)
2.438852375,168,'4' (0x04),'12' (0x0C)
2.438895875,169,'1' (0x01),'14' (0x0E)
2.438902125,169,'0' (0x00),'12' (0x0C)
2.43893925,170,'129' (0x81),'14' (0x0E)
2.43894575,170,'0' (0x00),'12' (0x0C)
2.4395785,171,= (0x3D),'14' (0x0E)
2.43958475,171,'0' (0x00),'18' (0x12)
2.439621875,172,'189' (0xBD),'14' (0x0E)
2.43962825,172,'22' (0x16),'18' (0x12)
2.43968,173,( (0x28),'14' (0x0E)
2.43968625,173,'0' (0x00),'0' (0x00)
2.4397235,174,'165' (0xA5),'14' (0x0E)
2.43973,174,@ (0x40),'0' (0x00)
2.439769125,175,'1' (0x01),'14' (0x0E)
2.43977525,175,'0' (0x00),'0' (0x00)
2.4398125,176,'129' (0x81),'14' (0x0E)
2.439818875,176,'16' (0x10),'0' (0x00)
2.439855125,177,' (0x27),'14' (0x0E)
2.439861375,177,'0' (0x00),'0' (0x00)
2.43989875,178,' (0x27),'14' (0x0E)
2.439905,178,'0' (0x00),'16' (0x10)
2.439942375,179,' (0x27),'14' (0x0E)
2.439948625,179,'0' (0x00),'16' (0x10)
2.439986,180,' (0x27),'14' (0x0E)
2.43999225,180,'0' (0x00),'144' (0x90)
2.44003325,181,$ (0x24),'14' (0x0E)
2.4400395,181,'0' (0x00),'255' (0xFF)
2.44008,182,'1' (0x01),'14' (0x0E)
2.44008625,182,'0' (0x00),'16' (0x10)
2.440123375,183,'129' (0x81),'14' (0x0E)
2.440129875,183,'4' (0x04),'16' (0x10)
2.440179375,184,' (0x27),'14' (0x0E)
2.440185625,184,'0' (0x00),'128' (0x80)
2.440222875,185,'165' (0xA5),'14' (0x0E)
2.44022925,185,'0' (0x00),@ (0x40)
2.440275125,186,'128' (0x80),'14' (0x0E)
2.4402815,186,'14' (0x0E),'14' (0x0E)
2.440287625,186,'1' (0x01),'14' (0x0E)
2.440294,186,7 (0x37),'14' (0x0E)
2.44030025,186,'0' (0x00),'14' (0x0E)
2.440307625,186,L (0x4C),'14' (0x0E)
2.440315,186,O (0x4F),'14' (0x0E)
2.44032225,186,: (0x3A),'14' (0x0E)
2.440329625,186,6 (0x36),'14' (0x0E)
2.440336875,186,m (0x6D),'14' (0x0E)
2.44034425,186,' ' (0x20),'14' (0x0E)
2.4403515,186,B (0x42),'14' (0x0E)
2.440358875,186,A (0x41),'14' (0x0E)
2.440366125,186,T (0x54),'14' (0x0E)
2.4403735,186,: (0x3A),'14' (0x0E)
2.44038075,186,v (0x76),'14' (0x0E)
2.440418875,187,'1' (0x01),'14' (0x0E)
2.440425125,187,'0' (0x00),'4' (0x04)
2.44046225,188,'129' (0x81),'14' (0x0E)
2.44046875,188,'12' (0x0C),'4' (0x04)
2.4405205,189,'1' (0x01),'14' (0x0E)
2.44052675,189,'0' (0x00),'12' (0x0C)
2.440563875,190,'129' (0x81),'14' (0x0E)
2.440570375,190,'4' (0x04),'12' (0x0C)
2.440613875,191,'1' (0x01),'14' (0x0E)
2.440620125,191,'0' (0x00),'12' (0x0C)
2.440657375,192,'129' (0x81),'14' (0x0E)
2.44066375,192,'0' (0x00),'12' (0x0C)
2.441297125,193,= (0x3D),'14' (0x0E)
2.441303375,193,'0' (0x00),'18' (0x12)
2.441340375,194,'189' (0xBD),'14' (0x0E)
2.441346875,194,'22' (0x16),'18' (0x12)
2.4413985,195,( (0x28),'14' (0x0E)
2.44140475,195,'0' (0x00),'0' (0x00)
2.441442125,196,'165' (0xA5),'14' (0x0E)
2.4414485,196,@ (0x40),'0' (0x00)
2.441487625,197,'1' (0x01),'14' (0x0E)
2.441493875,197,'0' (0x00),'0' (0x00)
2.441531125,198,'129' (0x81),'14' (0x0E)
2.4415375,198,'16' (0x10),'0' (0x00)
2.44157375,199,' (0x27),'14' (0x0E)
2.44158,199,'0' (0x00),'0' (0x00)
2.441617375,200,' (0x27),'14' (0x0E)
2.441623625,200,'0' (0x00),'16' (0x10)
2.441661,201,' (0x27),'14' (0x0E)
2.44166725,201,'0' (0x00),'16' (0x10)
2.441704625,202,' (0x27),'14' (0x0E)
2.441710875,202,'0' (0x00),'144' (0x90)
2.441752,203,$ (0x24),'14' (0x0E)
2.441758125,203,'0' (0x00),'255' (0xFF)
2.441798625,204,'1' (0x01),'14' (0x0E)
2.441804875,204,'0' (0x00),'16' (0x10)
2.441842,205,'129' (0x81),'14' (0x0E)
2.4418485,205,'4' (0x04),'16' (0x10)
2.441898125,206,' (0x27),'14' (0x0E)
2.44190425,206,'0' (0x00),'128' (0x80)
2.4419415,207,'165' (0xA5),'14' (0x0E)
2.441947875,207,'0' (0x00),@ (0x40)
2.44198175,208,'128' (0x80),'14' (0x0E)
2.441988125,208,'14' (0x0E),'14' (0x0E)
2.441994375,208,'1' (0x01),'14' (0x0E)
2.44200075,208,7 (0x37),'14' (0x0E)
2.442006875,208,'0' (0x00),'14' (0x0E)
2.442014375,208,L (0x4C),'14' (0x0E)
2.442021625,208,O (0x4F),'14' (0x0E)
2.442029,208,: (0x3A),'14' (0x0E)
2.44203625,208,7 (0x37),'14' (0x0E)
2.442043625,208,m (0x6D),'14' (0x0E)
2.442050875,208,' ' (0x20),'14' (0x0E)
2.44205825,208,B (0x42),'14' (0x0E)
2.4420655,208,A (0x41),'14' (0x0E)
2.442072875,208,T (0x54),'14' (0x0E)
2.442080125,208,: (0x3A),'14' (0x0E)
2.4420875,208,v (0x76),'14' (0x0E)
2.442125625,209,'1' (0x01),'14' (0x0E)
2.442131875,209,'0' (0x00),'4' (0x04)
2.442169,210,'129' (0x81),'14' (0x0E)
2.4421755,210,'12' (0x0C),'4' (0x04)
2.44222725,211,'1' (0x01),'14' (0x0E)
2.4422335,211,'0' (0x00),'12' (0x0C)
2.442282625,212,'129' (0x81),'14' (0x0E)
2.442289125,212,'4' (0x04),'12' (0x0C)
2.442332625,213,'1' (0x01),'14' (0x0E)
2.442338875,213,'0' (0x00),'12' (0x0C)
2.442376,214,'129' (0x81),'14' (0x0E)
2.4423825,214,'0' (0x00),'12' (0x0C)
